Index       TIME             V(CLK0)           V(CSB0)           V(WEB0)         V(DOUT0_0)        V(DOUT0_1)        V(DOUT0_2)        V(DOUT0_3)        V(DOUT0_4)        V(DOUT0_5)        V(DOUT0_6)        V(DOUT0_7)    
0        0.00000000e+00    0.00000000e+00    1.80000000e+00    1.80000000e+00    1.79999912e+00    1.79999912e+00    1.79999912e+00    1.79999912e+00    1.79999912e+00    1.79999912e+00    1.79999912e+00    1.79999912e+00
1        5.00000000e-12    0.00000000e+00    1.80000000e+00    1.80000000e+00    1.79999913e+00    1.79999913e+00    1.79999913e+00    1.79999912e+00    1.79999913e+00    1.79999913e+00    1.79999913e+00    1.79999913e+00
2        1.50000000e-11    0.00000000e+00    1.80000000e+00    1.80000000e+00    1.79999913e+00    1.79999913e+00    1.79999913e+00    1.79999913e+00    1.79999913e+00    1.79999913e+00    1.79999913e+00    1.79999913e+00
3        3.50000000e-11    0.00000000e+00    1.80000000e+00    1.80000000e+00    1.79999913e+00    1.79999913e+00    1.79999913e+00    1.79999913e+00    1.79999913e+00    1.79999913e+00    1.79999913e+00    1.79999913e+00
4        7.50000000e-11    0.00000000e+00    1.80000000e+00    1.80000000e+00    1.79999913e+00    1.79999913e+00    1.79999913e+00    1.79999913e+00    1.79999913e+00    1.79999913e+00    1.79999913e+00    1.79999913e+00
5        1.55000000e-10    0.00000000e+00    1.80000000e+00    1.80000000e+00    1.79999913e+00    1.79999913e+00    1.79999913e+00    1.79999913e+00    1.79999913e+00    1.79999913e+00    1.79999913e+00    1.79999913e+00
6        2.55000000e-10    0.00000000e+00    1.80000000e+00    1.80000000e+00    1.79999913e+00    1.79999913e+00    1.79999913e+00    1.79999912e+00    1.79999913e+00    1.79999913e+00    1.79999913e+00    1.79999913e+00
7        3.55000000e-10    0.00000000e+00    1.80000000e+00    1.80000000e+00    1.79999913e+00    1.79999913e+00    1.79999913e+00    1.79999913e+00    1.79999913e+00    1.79999913e+00    1.79999913e+00    1.79999913e+00
8        4.55000000e-10    0.00000000e+00    1.80000000e+00    1.80000000e+00    1.79999913e+00    1.79999913e+00    1.79999913e+00    1.79999913e+00    1.79999913e+00    1.79999913e+00    1.79999913e+00    1.79999913e+00
9        5.55000000e-10    0.00000000e+00    1.80000000e+00    1.80000000e+00    1.79999913e+00    1.79999913e+00    1.79999913e+00    1.79999913e+00    1.79999913e+00    1.79999913e+00    1.79999913e+00    1.79999913e+00
10       6.55000000e-10    0.00000000e+00    1.80000000e+00    1.80000000e+00    1.79999913e+00    1.79999913e+00    1.79999913e+00    1.79999912e+00    1.79999913e+00    1.79999913e+00    1.79999913e+00    1.79999913e+00
11       7.55000000e-10    0.00000000e+00    1.80000000e+00    1.80000000e+00    1.79999912e+00    1.79999912e+00    1.79999912e+00    1.79999912e+00    1.79999912e+00    1.79999912e+00    1.79999912e+00    1.79999912e+00
12       7.66250000e-10    0.00000000e+00    1.80000000e+00    1.80000000e+00    1.79999911e+00    1.79999911e+00    1.79999911e+00    1.79999911e+00    1.79999911e+00    1.79999911e+00    1.79999911e+00    1.79999911e+00
13       7.77500000e-10    0.00000000e+00    1.80000000e+00    1.80000000e+00    1.79999909e+00    1.79999909e+00    1.79999909e+00    1.79999909e+00    1.79999909e+00    1.79999909e+00    1.79999909e+00    1.79999909e+00
14       8.00000000e-10    0.00000000e+00    1.80000000e+00    1.80000000e+00    1.79999916e+00    1.79999916e+00    1.79999916e+00    1.79999916e+00    1.79999916e+00    1.79999916e+00    1.79999916e+00    1.79999916e+00
15       8.22500000e-10    0.00000000e+00    1.80000000e+00    1.80000000e+00    1.79999930e+00    1.79999930e+00    1.79999930e+00    1.79999930e+00    1.79999930e+00    1.79999930e+00    1.79999930e+00    1.79999930e+00
16       8.45000000e-10    0.00000000e+00    1.80000000e+00    1.80000000e+00    1.79999902e+00    1.79999902e+00    1.79999902e+00    1.79999901e+00    1.79999902e+00    1.79999902e+00    1.79999901e+00    1.79999902e+00
17       8.67500000e-10    0.00000000e+00    1.80000000e+00    1.80000000e+00    1.79999904e+00    1.79999904e+00    1.79999904e+00    1.79999904e+00    1.79999904e+00    1.79999904e+00    1.79999904e+00    1.79999904e+00
18       8.87400384e-10    0.00000000e+00    1.80000000e+00    1.80000000e+00    1.79999918e+00    1.79999918e+00    1.79999918e+00    1.79999918e+00    1.79999918e+00    1.79999918e+00    1.79999918e+00    1.79999918e+00
19       9.05310730e-10    0.00000000e+00    1.80000000e+00    1.80000000e+00    1.79999917e+00    1.79999917e+00    1.79999917e+00    1.79999917e+00    1.79999917e+00    1.79999917e+00    1.79999917e+00    1.79999917e+00
20       9.21430041e-10    0.00000000e+00    1.80000000e+00    1.80000000e+00    1.79999909e+00    1.79999909e+00    1.79999909e+00    1.79999909e+00    1.79999909e+00    1.79999909e+00    1.79999909e+00    1.79999909e+00
21       9.37549352e-10    0.00000000e+00    1.80000000e+00    1.80000000e+00    1.79999905e+00    1.79999905e+00    1.79999905e+00    1.79999905e+00    1.79999905e+00    1.79999905e+00    1.79999905e+00    1.79999905e+00
22       9.51152698e-10    0.00000000e+00    1.80000000e+00    1.80000000e+00    1.79999911e+00    1.79999911e+00    1.79999911e+00    1.79999911e+00    1.79999911e+00    1.79999911e+00    1.79999911e+00    1.79999911e+00
23       9.64756044e-10    0.00000000e+00    1.80000000e+00    1.80000000e+00    1.79999906e+00    1.79999906e+00    1.79999906e+00    1.79999906e+00    1.79999906e+00    1.79999906e+00    1.79999906e+00    1.79999906e+00
24       9.78359390e-10    0.00000000e+00    1.80000000e+00    1.80000000e+00    1.79999915e+00    1.79999915e+00    1.79999915e+00    1.79999915e+00    1.79999915e+00    1.79999915e+00    1.79999915e+00    1.79999915e+00
25       9.91962736e-10    0.00000000e+00    1.80000000e+00    1.80000000e+00    1.79999932e+00    1.79999932e+00    1.79999932e+00    1.79999932e+00    1.79999932e+00    1.79999932e+00    1.79999932e+00    1.79999932e+00
26       1.00000000e-09    0.00000000e+00    1.80000000e+00    1.80000000e+00    1.79999924e+00    1.79999924e+00    1.79999924e+00    1.79999924e+00    1.79999924e+00    1.79999924e+00    1.79999924e+00    1.79999924e+00
27       1.00136033e-09    4.89720457e-02    1.80000000e+00    1.80000000e+00    1.79999920e+00    1.79999920e+00    1.79999920e+00    1.79999920e+00    1.79999920e+00    1.79999920e+00    1.79999920e+00    1.79999920e+00
28       1.00272067e-09    9.79440914e-02    1.80000000e+00    1.80000000e+00    1.79999917e+00    1.79999917e+00    1.79999917e+00    1.79999917e+00    1.79999917e+00    1.79999917e+00    1.79999917e+00    1.79999917e+00
29       1.00544134e-09    1.95888183e-01    1.80000000e+00    1.80000000e+00    1.79999911e+00    1.79999911e+00    1.79999911e+00    1.79999911e+00    1.79999911e+00    1.79999911e+00    1.79999911e+00    1.79999911e+00
30       1.01088268e-09    3.91776366e-01    1.80000000e+00    1.80000000e+00    1.79999904e+00    1.79999904e+00    1.79999904e+00    1.79999904e+00    1.79999904e+00    1.79999904e+00    1.79999904e+00    1.79999904e+00
31       1.02176535e-09    7.83552731e-01    1.80000000e+00    1.80000000e+00    1.79999906e+00    1.79999906e+00    1.79999906e+00    1.79999906e+00    1.79999906e+00    1.79999906e+00    1.79999906e+00    1.79999906e+00
32       1.03264803e-09    1.17532910e+00    1.80000000e+00    1.80000000e+00    1.79999918e+00    1.79999918e+00    1.79999918e+00    1.79999918e+00    1.79999918e+00    1.79999918e+00    1.79999918e+00    1.79999918e+00
33       1.04353071e-09    1.56710546e+00    1.80000000e+00    1.80000000e+00    1.79999918e+00    1.79999918e+00    1.79999918e+00    1.79999918e+00    1.79999918e+00    1.79999918e+00    1.79999918e+00    1.79999918e+00
34       1.05000000e-09    1.80000000e+00    1.80000000e+00    1.80000000e+00    1.79999911e+00    1.79999911e+00    1.79999910e+00    1.79999910e+00    1.79999910e+00    1.79999910e+00    1.79999911e+00    1.79999911e+00
35       1.05108827e-09    1.80000000e+00    1.80000000e+00    1.80000000e+00    1.79999910e+00    1.79999910e+00    1.79999910e+00    1.79999910e+00    1.79999910e+00    1.79999910e+00    1.79999910e+00    1.79999910e+00
36       1.05217654e-09    1.80000000e+00    1.80000000e+00    1.80000000e+00    1.79999909e+00    1.79999909e+00    1.79999909e+00    1.79999909e+00    1.79999909e+00    1.79999909e+00    1.79999909e+00    1.79999909e+00
37       1.05435307e-09    1.80000000e+00    1.80000000e+00    1.80000000e+00    1.79999908e+00    1.79999908e+00    1.79999908e+00    1.79999908e+00    1.79999908e+00    1.79999908e+00    1.79999908e+00    1.79999908e+00
38       1.05870614e-09    1.80000000e+00    1.80000000e+00    1.80000000e+00    1.79999910e+00    1.79999910e+00    1.79999910e+00    1.79999910e+00    1.79999910e+00    1.79999910e+00    1.79999910e+00    1.79999910e+00
39       1.06741228e-09    1.80000000e+00    1.80000000e+00    1.80000000e+00    1.79999916e+00    1.79999916e+00    1.79999916e+00    1.79999916e+00    1.79999916e+00    1.79999916e+00    1.79999916e+00    1.79999916e+00
40       1.07611842e-09    1.80000000e+00    1.80000000e+00    1.80000000e+00    1.79999914e+00    1.79999914e+00    1.79999914e+00    1.79999914e+00    1.79999914e+00    1.79999914e+00    1.79999914e+00    1.79999914e+00
41       1.08482457e-09    1.80000000e+00    1.80000000e+00    1.80000000e+00    1.79999908e+00    1.79999908e+00    1.79999908e+00    1.79999908e+00    1.79999908e+00    1.79999908e+00    1.79999908e+00    1.79999908e+00
42       1.09353071e-09    1.80000000e+00    1.80000000e+00    1.80000000e+00    1.79999906e+00    1.79999906e+00    1.79999906e+00    1.79999906e+00    1.79999906e+00    1.79999906e+00    1.79999906e+00    1.79999906e+00
43       1.10223685e-09    1.80000000e+00    1.80000000e+00    1.80000000e+00    1.79999905e+00    1.79999905e+00    1.79999905e+00    1.79999905e+00    1.79999905e+00    1.79999905e+00    1.79999905e+00    1.79999905e+00
44       1.11094299e-09    1.80000000e+00    1.80000000e+00    1.80000000e+00    1.79999906e+00    1.79999906e+00    1.79999906e+00    1.79999906e+00    1.79999906e+00    1.79999906e+00    1.79999906e+00    1.79999906e+00
45       1.12835527e-09    1.80000000e+00    1.80000000e+00    1.80000000e+00    1.79999910e+00    1.79999910e+00    1.79999910e+00    1.79999910e+00    1.79999910e+00    1.79999910e+00    1.79999910e+00    1.79999910e+00
46       1.14323891e-09    1.80000000e+00    1.80000000e+00    1.80000000e+00    1.79999912e+00    1.79999912e+00    1.79999912e+00    1.79999912e+00    1.79999912e+00    1.79999912e+00    1.79999912e+00    1.79999912e+00
47       1.15812254e-09    1.80000000e+00    1.80000000e+00    1.80000000e+00    1.79999914e+00    1.79999914e+00    1.79999914e+00    1.79999914e+00    1.79999914e+00    1.79999914e+00    1.79999914e+00    1.79999914e+00
48       1.17300617e-09    1.80000000e+00    1.80000000e+00    1.80000000e+00    1.79999920e+00    1.79999920e+00    1.79999920e+00    1.79999920e+00    1.79999920e+00    1.79999920e+00    1.79999920e+00    1.79999920e+00
49       1.18607885e-09    1.80000000e+00    1.80000000e+00    1.80000000e+00    1.79999918e+00    1.79999918e+00    1.79999918e+00    1.79999918e+00    1.79999918e+00    1.79999918e+00    1.79999918e+00    1.79999918e+00
50       1.19915153e-09    1.80000000e+00    1.80000000e+00    1.80000000e+00    1.79999916e+00    1.79999916e+00    1.79999916e+00    1.79999916e+00    1.79999916e+00    1.79999916e+00    1.79999916e+00    1.79999916e+00
51       1.21222421e-09    1.80000000e+00    1.80000000e+00    1.80000000e+00    1.79999914e+00    1.79999914e+00    1.79999914e+00    1.79999914e+00    1.79999914e+00    1.79999914e+00    1.79999914e+00    1.79999914e+00
52       1.22529689e-09    1.80000000e+00    1.80000000e+00    1.80000000e+00    1.79999913e+00    1.79999913e+00    1.79999913e+00    1.79999913e+00    1.79999913e+00    1.79999913e+00    1.79999913e+00    1.79999913e+00
53       1.23836957e-09    1.80000000e+00    1.80000000e+00    1.80000000e+00    1.79999913e+00    1.79999913e+00    1.79999913e+00    1.79999913e+00    1.79999913e+00    1.79999913e+00    1.79999913e+00    1.79999913e+00
54       1.25144226e-09    1.80000000e+00    1.80000000e+00    1.80000000e+00    1.79999906e+00    1.79999906e+00    1.79999906e+00    1.79999906e+00    1.79999906e+00    1.79999906e+00    1.79999906e+00    1.79999906e+00
55       1.26451494e-09    1.80000000e+00    1.80000000e+00    1.80000000e+00    1.79999906e+00    1.79999906e+00    1.79999906e+00    1.79999906e+00    1.79999906e+00    1.79999906e+00    1.79999906e+00    1.79999906e+00
56       1.27758762e-09    1.80000000e+00    1.80000000e+00    1.80000000e+00    1.79999916e+00    1.79999916e+00    1.79999916e+00    1.79999916e+00    1.79999916e+00    1.79999916e+00    1.79999916e+00    1.79999916e+00
57       1.29066030e-09    1.80000000e+00    1.80000000e+00    1.80000000e+00    1.79999917e+00    1.79999917e+00    1.79999917e+00    1.79999917e+00    1.79999917e+00    1.79999917e+00    1.79999917e+00    1.79999917e+00
58       1.30373298e-09    1.80000000e+00    1.80000000e+00    1.80000000e+00    1.79999910e+00    1.79999910e+00    1.79999910e+00    1.79999910e+00    1.79999910e+00    1.79999910e+00    1.79999910e+00    1.79999910e+00
59       1.31680566e-09    1.80000000e+00    1.80000000e+00    1.80000000e+00    1.79999910e+00    1.79999910e+00    1.79999910e+00    1.79999910e+00    1.79999910e+00    1.79999910e+00    1.79999910e+00    1.79999910e+00
60       1.32987834e-09    1.80000000e+00    1.80000000e+00    1.80000000e+00    1.79999912e+00    1.79999912e+00    1.79999912e+00    1.79999912e+00    1.79999912e+00    1.79999912e+00    1.79999912e+00    1.79999912e+00
61       1.34295102e-09    1.80000000e+00    1.80000000e+00    1.80000000e+00    1.79999913e+00    1.79999913e+00    1.79999913e+00    1.79999913e+00    1.79999913e+00    1.79999913e+00    1.79999913e+00    1.79999913e+00
62       1.35602370e-09    1.80000000e+00    1.80000000e+00    1.80000000e+00    1.79999914e+00    1.79999914e+00    1.79999914e+00    1.79999914e+00    1.79999914e+00    1.79999914e+00    1.79999914e+00    1.79999914e+00
63       1.36909638e-09    1.80000000e+00    1.80000000e+00    1.80000000e+00    1.79999914e+00    1.79999914e+00    1.79999914e+00    1.79999914e+00    1.79999914e+00    1.79999914e+00    1.79999914e+00    1.79999914e+00
64       1.38216906e-09    1.80000000e+00    1.80000000e+00    1.80000000e+00    1.79999912e+00    1.79999912e+00    1.79999912e+00    1.79999912e+00    1.79999912e+00    1.79999912e+00    1.79999912e+00    1.79999912e+00
65       1.39524174e-09    1.80000000e+00    1.80000000e+00    1.80000000e+00    1.79999907e+00    1.79999907e+00    1.79999907e+00    1.79999907e+00    1.79999907e+00    1.79999907e+00    1.79999907e+00    1.79999907e+00
66       1.42138710e-09    1.80000000e+00    1.80000000e+00    1.80000000e+00    1.79999909e+00    1.79999909e+00    1.79999909e+00    1.79999909e+00    1.79999909e+00    1.79999909e+00    1.79999909e+00    1.79999909e+00
67       1.44753246e-09    1.80000000e+00    1.80000000e+00    1.80000000e+00    1.79999923e+00    1.79999923e+00    1.79999923e+00    1.79999923e+00    1.79999923e+00    1.79999923e+00    1.79999923e+00    1.79999923e+00
68       1.47367783e-09    1.80000000e+00    1.80000000e+00    1.80000000e+00    1.79999909e+00    1.79999909e+00    1.79999909e+00    1.79999909e+00    1.79999909e+00    1.79999909e+00    1.79999909e+00    1.79999909e+00
69       1.49720865e-09    1.80000000e+00    1.80000000e+00    1.80000000e+00    1.79999954e+00    1.79999954e+00    1.79999954e+00    1.79999954e+00    1.79999954e+00    1.79999954e+00    1.79999954e+00    1.79999954e+00
70       1.51838639e-09    1.80000000e+00    1.80000000e+00    1.80000000e+00    1.79999911e+00    1.79999911e+00    1.79999911e+00    1.79999911e+00    1.79999911e+00    1.79999911e+00    1.79999911e+00    1.79999911e+00
71       1.53956414e-09    1.80000000e+00    1.80000000e+00    1.80000000e+00    1.79999859e+00    1.79999859e+00    1.79999859e+00    1.79999859e+00    1.79999859e+00    1.79999859e+00    1.79999859e+00    1.79999859e+00
72       1.56074188e-09    1.80000000e+00    1.80000000e+00    1.80000000e+00    1.79999916e+00    1.79999916e+00    1.79999916e+00    1.79999916e+00    1.79999916e+00    1.79999916e+00    1.79999916e+00    1.79999916e+00
73       1.58191962e-09    1.80000000e+00    1.80000000e+00    1.80000000e+00    1.79999917e+00    1.79999917e+00    1.79999917e+00    1.79999917e+00    1.79999917e+00    1.79999917e+00    1.79999917e+00    1.79999917e+00
74       1.60309736e-09    1.80000000e+00    1.80000000e+00    1.80000000e+00    1.79999910e+00    1.79999910e+00    1.79999910e+00    1.79999910e+00    1.79999910e+00    1.79999910e+00    1.79999910e+00    1.79999910e+00
75       1.62427511e-09    1.80000000e+00    1.80000000e+00    1.80000000e+00    1.79999914e+00    1.79999914e+00    1.79999914e+00    1.79999914e+00    1.79999914e+00    1.79999914e+00    1.79999914e+00    1.79999914e+00
76       1.64545285e-09    1.80000000e+00    1.80000000e+00    1.80000000e+00    1.79999911e+00    1.79999911e+00    1.79999911e+00    1.79999911e+00    1.79999911e+00    1.79999911e+00    1.79999911e+00    1.79999911e+00
77       1.66663059e-09    1.80000000e+00    1.80000000e+00    1.80000000e+00    1.79999911e+00    1.79999911e+00    1.79999911e+00    1.79999911e+00    1.79999911e+00    1.79999911e+00    1.79999911e+00    1.79999911e+00
78       1.68780833e-09    1.80000000e+00    1.80000000e+00    1.80000000e+00    1.79999913e+00    1.79999914e+00    1.79999913e+00    1.79999913e+00    1.79999913e+00    1.79999913e+00    1.79999914e+00    1.79999913e+00
79       1.70686830e-09    1.80000000e+00    1.80000000e+00    1.80000000e+00    1.79999916e+00    1.79999916e+00    1.79999916e+00    1.79999916e+00    1.79999916e+00    1.79999916e+00    1.79999916e+00    1.79999916e+00
80       1.70971482e-09    1.80000000e+00    1.80000000e+00    1.80000000e+00    1.79999916e+00    1.79999916e+00    1.79999916e+00    1.79999916e+00    1.79999916e+00    1.79999916e+00    1.79999916e+00    1.79999916e+00
81       1.71540786e-09    1.80000000e+00    1.80000000e+00    1.80000000e+00    1.79999915e+00    1.79999915e+00    1.79999915e+00    1.79999915e+00    1.79999915e+00    1.79999915e+00    1.79999915e+00    1.79999915e+00
82       1.72110090e-09    1.80000000e+00    1.80000000e+00    1.80000000e+00    1.79999915e+00    1.79999915e+00    1.79999915e+00    1.79999915e+00    1.79999915e+00    1.79999915e+00    1.79999915e+00    1.79999915e+00
83       1.72679393e-09    1.80000000e+00    1.80000000e+00    1.80000000e+00    1.79999915e+00    1.79999915e+00    1.79999915e+00    1.79999915e+00    1.79999915e+00    1.79999915e+00    1.79999915e+00    1.79999915e+00
84       1.73248697e-09    1.80000000e+00    1.80000000e+00    1.80000000e+00    1.79999915e+00    1.79999915e+00    1.79999915e+00    1.79999915e+00    1.79999915e+00    1.79999915e+00    1.79999915e+00    1.79999915e+00
85       1.73818001e-09    1.80000000e+00    1.80000000e+00    1.80000000e+00    1.79999915e+00    1.79999915e+00    1.79999915e+00    1.79999915e+00    1.79999915e+00    1.79999915e+00    1.79999915e+00    1.79999915e+00
86       1.74387305e-09    1.80000000e+00    1.80000000e+00    1.80000000e+00    1.79999914e+00    1.79999914e+00    1.79999914e+00    1.79999914e+00    1.79999914e+00    1.79999914e+00    1.79999914e+00    1.79999914e+00
87       1.74956608e-09    1.80000000e+00    1.80000000e+00    1.80000000e+00    1.79999914e+00    1.79999914e+00    1.79999914e+00    1.79999914e+00    1.79999914e+00    1.79999914e+00    1.79999914e+00    1.79999914e+00
88       1.75525912e-09    1.80000000e+00    1.80000000e+00    1.80000000e+00    1.79999914e+00    1.79999914e+00    1.79999914e+00    1.79999914e+00    1.79999914e+00    1.79999914e+00    1.79999914e+00    1.79999914e+00
