Index       TIME             V(CLK0)           V(CSB0)           V(WEB0)         V(DOUT0_0)        V(DOUT0_1)        V(DOUT0_2)        V(DOUT0_3)    
0        0.00000000e+00    0.00000000e+00    1.80000000e+00    1.80000000e+00    1.79999910e+00    1.79999910e+00    1.79999910e+00    1.79999910e+00
1        5.00000000e-12    0.00000000e+00    1.80000000e+00    1.80000000e+00    1.79999910e+00    1.79999910e+00    1.79999910e+00    1.79999910e+00
2        1.50000000e-11    0.00000000e+00    1.80000000e+00    1.80000000e+00    1.79999910e+00    1.79999910e+00    1.79999910e+00    1.79999910e+00
3        3.50000000e-11    0.00000000e+00    1.80000000e+00    1.80000000e+00    1.79999910e+00    1.79999910e+00    1.79999910e+00    1.79999910e+00
4        7.50000000e-11    0.00000000e+00    1.80000000e+00    1.80000000e+00    1.79999910e+00    1.79999910e+00    1.79999910e+00    1.79999910e+00
5        1.55000000e-10    0.00000000e+00    1.80000000e+00    1.80000000e+00    1.79999910e+00    1.79999910e+00    1.79999910e+00    1.79999910e+00
6        2.55000000e-10    0.00000000e+00    1.80000000e+00    1.80000000e+00    1.79999910e+00    1.79999910e+00    1.79999910e+00    1.79999910e+00
7        3.55000000e-10    0.00000000e+00    1.80000000e+00    1.80000000e+00    1.79999910e+00    1.79999910e+00    1.79999910e+00    1.79999910e+00
8        4.55000000e-10    0.00000000e+00    1.80000000e+00    1.80000000e+00    1.79999910e+00    1.79999910e+00    1.79999910e+00    1.79999910e+00
9        5.55000000e-10    0.00000000e+00    1.80000000e+00    1.80000000e+00    1.79999910e+00    1.79999910e+00    1.79999910e+00    1.79999910e+00
10       6.55000000e-10    0.00000000e+00    1.80000000e+00    1.80000000e+00    1.79999910e+00    1.79999910e+00    1.79999910e+00    1.79999910e+00
11       7.55000000e-10    0.00000000e+00    1.80000000e+00    1.80000000e+00    1.79999910e+00    1.79999910e+00    1.79999910e+00    1.79999910e+00
12       8.55000000e-10    0.00000000e+00    1.80000000e+00    1.80000000e+00    1.79999910e+00    1.79999910e+00    1.79999910e+00    1.79999910e+00
13       9.55000000e-10    0.00000000e+00    1.80000000e+00    1.80000000e+00    1.79999909e+00    1.79999909e+00    1.79999909e+00    1.79999909e+00
14       1.00000000e-09    0.00000000e+00    1.80000000e+00    1.80000000e+00    1.79999899e+00    1.79999899e+00    1.79999899e+00    1.79999899e+00
15       1.00500000e-09    1.80000000e-01    1.80000000e+00    1.80000000e+00    1.79999897e+00    1.79999897e+00    1.79999897e+00    1.79999897e+00
16       1.00886864e-09    3.19270916e-01    1.80000000e+00    1.80000000e+00    1.79999898e+00    1.79999898e+00    1.79999898e+00    1.79999898e+00
17       1.01273727e-09    4.58541832e-01    1.80000000e+00    1.80000000e+00    1.79999901e+00    1.79999901e+00    1.79999901e+00    1.79999901e+00
18       1.02047455e-09    7.37083663e-01    1.80000000e+00    1.80000000e+00    1.79999940e+00    1.79999940e+00    1.79999940e+00    1.79999940e+00
19       1.02821182e-09    1.01562550e+00    1.80000000e+00    1.80000000e+00    1.80000001e+00    1.80000001e+00    1.80000001e+00    1.80000001e+00
20       1.03594909e-09    1.29416733e+00    1.80000000e+00    1.80000000e+00    1.79999997e+00    1.79999997e+00    1.79999997e+00    1.79999997e+00
21       1.04368637e-09    1.57270916e+00    1.80000000e+00    1.80000000e+00    1.79999931e+00    1.79999931e+00    1.79999931e+00    1.79999931e+00
22       1.05000000e-09    1.80000000e+00    1.80000000e+00    1.80000000e+00    1.79999883e+00    1.79999883e+00    1.79999883e+00    1.79999883e+00
23       1.05077373e-09    1.80000000e+00    1.80000000e+00    1.80000000e+00    1.79999879e+00    1.79999879e+00    1.79999879e+00    1.79999879e+00
24       1.05154745e-09    1.80000000e+00    1.80000000e+00    1.80000000e+00    1.79999876e+00    1.79999876e+00    1.79999876e+00    1.79999876e+00
25       1.05309491e-09    1.80000000e+00    1.80000000e+00    1.80000000e+00    1.79999871e+00    1.79999871e+00    1.79999871e+00    1.79999871e+00
26       1.05618982e-09    1.80000000e+00    1.80000000e+00    1.80000000e+00    1.79999865e+00    1.79999865e+00    1.79999865e+00    1.79999865e+00
27       1.06237964e-09    1.80000000e+00    1.80000000e+00    1.80000000e+00    1.79999865e+00    1.79999865e+00    1.79999865e+00    1.79999865e+00
28       1.06856946e-09    1.80000000e+00    1.80000000e+00    1.80000000e+00    1.79999873e+00    1.79999873e+00    1.79999873e+00    1.79999873e+00
29       1.07475927e-09    1.80000000e+00    1.80000000e+00    1.80000000e+00    1.79999881e+00    1.79999881e+00    1.79999881e+00    1.79999881e+00
30       1.08713891e-09    1.80000000e+00    1.80000000e+00    1.80000000e+00    1.79999892e+00    1.79999892e+00    1.79999892e+00    1.79999892e+00
31       1.09951855e-09    1.80000000e+00    1.80000000e+00    1.80000000e+00    1.79999898e+00    1.79999898e+00    1.79999898e+00    1.79999898e+00
32       1.11189818e-09    1.80000000e+00    1.80000000e+00    1.80000000e+00    1.79999904e+00    1.79999904e+00    1.79999904e+00    1.79999904e+00
33       1.12427782e-09    1.80000000e+00    1.80000000e+00    1.80000000e+00    1.79999909e+00    1.79999909e+00    1.79999909e+00    1.79999909e+00
34       1.13665746e-09    1.80000000e+00    1.80000000e+00    1.80000000e+00    1.79999912e+00    1.79999912e+00    1.79999912e+00    1.79999912e+00
35       1.14903710e-09    1.80000000e+00    1.80000000e+00    1.80000000e+00    1.79999913e+00    1.79999913e+00    1.79999913e+00    1.79999913e+00
36       1.16141673e-09    1.80000000e+00    1.80000000e+00    1.80000000e+00    1.79999914e+00    1.79999913e+00    1.79999913e+00    1.79999913e+00
37       1.17379637e-09    1.80000000e+00    1.80000000e+00    1.80000000e+00    1.79999913e+00    1.79999913e+00    1.79999913e+00    1.79999913e+00
38       1.18493804e-09    1.80000000e+00    1.80000000e+00    1.80000000e+00    1.79999913e+00    1.79999913e+00    1.79999913e+00    1.79999913e+00
39       1.20722139e-09    1.80000000e+00    1.80000000e+00    1.80000000e+00    1.79999912e+00    1.79999912e+00    1.79999912e+00    1.79999912e+00
40       1.22950474e-09    1.80000000e+00    1.80000000e+00    1.80000000e+00    1.79999910e+00    1.79999910e+00    1.79999910e+00    1.79999910e+00
41       1.25178808e-09    1.80000000e+00    1.80000000e+00    1.80000000e+00    1.79999910e+00    1.79999910e+00    1.79999910e+00    1.79999910e+00
42       1.27407143e-09    1.80000000e+00    1.80000000e+00    1.80000000e+00    1.79999911e+00    1.79999911e+00    1.79999911e+00    1.79999911e+00
43       1.29635478e-09    1.80000000e+00    1.80000000e+00    1.80000000e+00    1.79999911e+00    1.79999911e+00    1.79999911e+00    1.79999911e+00
44       1.31863812e-09    1.80000000e+00    1.80000000e+00    1.80000000e+00    1.79999919e+00    1.79999918e+00    1.79999918e+00    1.79999918e+00
45       1.34092147e-09    1.80000000e+00    1.80000000e+00    1.80000000e+00    1.79999897e+00    1.79999897e+00    1.79999897e+00    1.79999897e+00
46       1.36320482e-09    1.80000000e+00    1.80000000e+00    1.80000000e+00    1.79999899e+00    1.79999899e+00    1.79999899e+00    1.79999899e+00
47       1.38291342e-09    1.80000000e+00    1.80000000e+00    1.80000000e+00    1.79999911e+00    1.79999911e+00    1.79999911e+00    1.79999911e+00
48       1.40013827e-09    1.80000000e+00    1.80000000e+00    1.80000000e+00    1.79999906e+00    1.79999906e+00    1.79999906e+00    1.79999906e+00
49       1.41528322e-09    1.80000000e+00    1.80000000e+00    1.80000000e+00    1.79999972e+00    1.79999972e+00    1.79999972e+00    1.79999972e+00
50       1.43042818e-09    1.80000000e+00    1.80000000e+00    1.80000000e+00    1.79999952e+00    1.79999952e+00    1.79999952e+00    1.79999952e+00
51       1.44557313e-09    1.80000000e+00    1.80000000e+00    1.80000000e+00    1.79999850e+00    1.79999850e+00    1.79999850e+00    1.79999850e+00
52       1.46071808e-09    1.80000000e+00    1.80000000e+00    1.80000000e+00    1.79999868e+00    1.79999868e+00    1.79999868e+00    1.79999868e+00
53       1.47586304e-09    1.80000000e+00    1.80000000e+00    1.80000000e+00    1.79999895e+00    1.79999895e+00    1.79999895e+00    1.79999895e+00
54       1.49100799e-09    1.80000000e+00    1.80000000e+00    1.80000000e+00    1.79999889e+00    1.79999889e+00    1.79999889e+00    1.79999889e+00
55       1.50615295e-09    1.80000000e+00    1.80000000e+00    1.80000000e+00    1.79999918e+00    1.79999918e+00    1.79999918e+00    1.79999918e+00
56       1.52129790e-09    1.80000000e+00    1.80000000e+00    1.80000000e+00    1.79999962e+00    1.79999962e+00    1.79999962e+00    1.79999962e+00
57       1.53644285e-09    1.80000000e+00    1.80000000e+00    1.80000000e+00    1.79999947e+00    1.79999947e+00    1.79999947e+00    1.79999947e+00
58       1.55158781e-09    1.80000000e+00    1.80000000e+00    1.80000000e+00    1.79999925e+00    1.79999925e+00    1.79999925e+00    1.79999925e+00
59       1.56673276e-09    1.80000000e+00    1.80000000e+00    1.80000000e+00    1.79999912e+00    1.79999912e+00    1.79999912e+00    1.79999912e+00
60       1.58187772e-09    1.80000000e+00    1.80000000e+00    1.80000000e+00    1.79999873e+00    1.79999873e+00    1.79999873e+00    1.79999873e+00
61       1.59702267e-09    1.80000000e+00    1.80000000e+00    1.80000000e+00    1.79999881e+00    1.79999881e+00    1.79999881e+00    1.79999881e+00
62       1.61216762e-09    1.80000000e+00    1.80000000e+00    1.80000000e+00    1.79999906e+00    1.79999906e+00    1.79999906e+00    1.79999906e+00
63       1.62731258e-09    1.80000000e+00    1.80000000e+00    1.80000000e+00    1.79999903e+00    1.79999903e+00    1.79999903e+00    1.79999903e+00
64       1.64245753e-09    1.80000000e+00    1.80000000e+00    1.80000000e+00    1.79999898e+00    1.79999898e+00    1.79999898e+00    1.79999898e+00
65       1.65760249e-09    1.80000000e+00    1.80000000e+00    1.80000000e+00    1.79999905e+00    1.79999905e+00    1.79999905e+00    1.79999905e+00
66       1.67274744e-09    1.80000000e+00    1.80000000e+00    1.80000000e+00    1.79999909e+00    1.79999909e+00    1.79999909e+00    1.79999909e+00
67       1.68789239e-09    1.80000000e+00    1.80000000e+00    1.80000000e+00    1.79999912e+00    1.79999912e+00    1.79999912e+00    1.79999912e+00
68       1.70303735e-09    1.80000000e+00    1.80000000e+00    1.80000000e+00    1.79999915e+00    1.79999915e+00    1.79999915e+00    1.79999915e+00
69       1.71818230e-09    1.80000000e+00    1.80000000e+00    1.80000000e+00    1.79999914e+00    1.79999914e+00    1.79999914e+00    1.79999914e+00
70       1.73162300e-09    1.80000000e+00    1.80000000e+00    1.80000000e+00    1.79999913e+00    1.79999913e+00    1.79999913e+00    1.79999913e+00
71       1.74295122e-09    1.80000000e+00    1.80000000e+00    1.80000000e+00    1.79999913e+00    1.79999913e+00    1.79999913e+00    1.79999913e+00
72       1.75296780e-09    1.80000000e+00    1.80000000e+00    1.80000000e+00    1.79999913e+00    1.79999913e+00    1.79999913e+00    1.79999913e+00
73       1.76198271e-09    1.80000000e+00    1.80000000e+00    1.80000000e+00    1.79999912e+00    1.79999912e+00    1.79999912e+00    1.79999912e+00
74       1.77099763e-09    1.80000000e+00    1.80000000e+00    1.80000000e+00    1.79999912e+00    1.79999912e+00    1.79999912e+00    1.79999912e+00
75       1.78001255e-09    1.80000000e+00    1.80000000e+00    1.80000000e+00    1.79999912e+00    1.79999912e+00    1.79999912e+00    1.79999912e+00
76       1.78902746e-09    1.80000000e+00    1.80000000e+00    1.80000000e+00    1.79999913e+00    1.79999913e+00    1.79999913e+00    1.79999913e+00
77       1.79804238e-09    1.80000000e+00    1.80000000e+00    1.80000000e+00    1.79999913e+00    1.79999913e+00    1.79999913e+00    1.79999913e+00
78       1.80705729e-09    1.80000000e+00    1.80000000e+00    1.80000000e+00    1.79999912e+00    1.79999912e+00    1.79999912e+00    1.79999912e+00
79       1.81607221e-09    1.80000000e+00    1.80000000e+00    1.80000000e+00    1.79999910e+00    1.79999910e+00    1.79999910e+00    1.79999910e+00
80       1.82508713e-09    1.80000000e+00    1.80000000e+00    1.80000000e+00    1.79999910e+00    1.79999910e+00    1.79999910e+00    1.79999910e+00
81       1.83410204e-09    1.80000000e+00    1.80000000e+00    1.80000000e+00    1.79999910e+00    1.79999910e+00    1.79999910e+00    1.79999910e+00
82       1.84311696e-09    1.80000000e+00    1.80000000e+00    1.80000000e+00    1.79999910e+00    1.79999910e+00    1.79999910e+00    1.79999910e+00
83       1.86114679e-09    1.80000000e+00    1.80000000e+00    1.80000000e+00    1.79999910e+00    1.79999910e+00    1.79999910e+00    1.79999910e+00
84       1.87917662e-09    1.80000000e+00    1.80000000e+00    1.80000000e+00    1.79999910e+00    1.79999910e+00    1.79999910e+00    1.79999910e+00
85       1.89720646e-09    1.80000000e+00    1.80000000e+00    1.80000000e+00    1.79999910e+00    1.79999910e+00    1.79999910e+00    1.79999910e+00
86       1.91523629e-09    1.80000000e+00    1.80000000e+00    1.80000000e+00    1.79999910e+00    1.79999910e+00    1.79999910e+00    1.79999910e+00
87       1.95129595e-09    1.80000000e+00    1.80000000e+00    1.80000000e+00    1.79999910e+00    1.79999910e+00    1.79999910e+00    1.79999910e+00
88       1.98735562e-09    1.80000000e+00    1.80000000e+00    1.80000000e+00    1.79999910e+00    1.79999910e+00    1.79999910e+00    1.79999910e+00
89       2.05947495e-09    1.80000000e+00    1.80000000e+00    1.80000000e+00    1.79999910e+00    1.79999910e+00    1.79999910e+00    1.79999910e+00
90       2.13159428e-09    1.80000000e+00    1.80000000e+00    1.80000000e+00    1.79999910e+00    1.79999910e+00    1.79999910e+00    1.79999910e+00
91       2.19650167e-09    1.80000000e+00    1.80000000e+00    1.80000000e+00    1.79999910e+00    1.79999910e+00    1.79999910e+00    1.79999910e+00
92       2.26140907e-09    1.80000000e+00    1.80000000e+00    1.80000000e+00    1.79999910e+00    1.79999910e+00    1.79999910e+00    1.79999910e+00
93       2.31880547e-09    1.80000000e+00    1.80000000e+00    1.80000000e+00    1.79999910e+00    1.79999910e+00    1.79999910e+00    1.79999910e+00
94       2.37620188e-09    1.80000000e+00    1.80000000e+00    1.80000000e+00    1.79999910e+00    1.79999910e+00    1.79999910e+00    1.79999910e+00
95       2.43359828e-09    1.80000000e+00    1.80000000e+00    1.80000000e+00    1.79999910e+00    1.79999910e+00    1.79999910e+00    1.79999910e+00
96       2.49099468e-09    1.80000000e+00    1.80000000e+00    1.80000000e+00    1.79999910e+00    1.79999910e+00    1.79999910e+00    1.79999910e+00
97       2.54839109e-09    1.80000000e+00    1.80000000e+00    1.80000000e+00    1.79999910e+00    1.79999910e+00    1.79999910e+00    1.79999910e+00
98       2.60578749e-09    1.80000000e+00    1.80000000e+00    1.80000000e+00    1.79999910e+00    1.79999910e+00    1.79999910e+00    1.79999910e+00
99       2.65744425e-09    1.80000000e+00    1.80000000e+00    1.80000000e+00    1.79999910e+00    1.79999910e+00    1.79999910e+00    1.79999910e+00
100      2.70910101e-09    1.80000000e+00    1.80000000e+00    1.80000000e+00    1.79999910e+00    1.79999910e+00    1.79999910e+00    1.79999910e+00
101      2.76075778e-09    1.80000000e+00    1.80000000e+00    1.80000000e+00    1.79999910e+00    1.79999910e+00    1.79999910e+00    1.79999910e+00
102      2.81241454e-09    1.80000000e+00    1.80000000e+00    1.80000000e+00    1.79999911e+00    1.79999911e+00    1.79999911e+00    1.79999911e+00
103      2.81890185e-09    1.80000000e+00    1.80000000e+00    1.80000000e+00    1.79999909e+00    1.79999909e+00    1.79999909e+00    1.79999909e+00
104      2.83187646e-09    1.80000000e+00    1.80000000e+00    1.80000000e+00    1.79999896e+00    1.79999896e+00    1.79999896e+00    1.79999896e+00
105      2.84485107e-09    1.80000000e+00    1.80000000e+00    1.80000000e+00    1.79999863e+00    1.79999863e+00    1.79999863e+00    1.79999863e+00
106      2.85782569e-09    1.80000000e+00    1.80000000e+00    1.80000000e+00    1.79999803e+00    1.79999803e+00    1.79999803e+00    1.79999803e+00
107      2.87080030e-09    1.80000000e+00    1.80000000e+00    1.80000000e+00    1.79999766e+00    1.79999766e+00    1.79999766e+00    1.79999766e+00
108      2.87230389e-09    1.80000000e+00    1.80000000e+00    1.80000000e+00    1.79999774e+00    1.79999774e+00    1.79999774e+00    1.79999774e+00
109      2.87531107e-09    1.80000000e+00    1.80000000e+00    1.80000000e+00    1.79999804e+00    1.79999804e+00    1.79999804e+00    1.79999804e+00
110      2.87831825e-09    1.80000000e+00    1.80000000e+00    1.80000000e+00    1.79999876e+00    1.79999876e+00    1.79999876e+00    1.79999876e+00
111      2.88132543e-09    1.80000000e+00    1.80000000e+00    1.80000000e+00    1.79999995e+00    1.79999995e+00    1.79999995e+00    1.79999995e+00
112      2.88433261e-09    1.80000000e+00    1.80000000e+00    1.80000000e+00    1.80000236e+00    1.80000236e+00    1.80000236e+00    1.80000236e+00
113      2.88733979e-09    1.80000000e+00    1.80000000e+00    1.80000000e+00    1.80000519e+00    1.80000519e+00    1.80000519e+00    1.80000519e+00
114      2.89034696e-09    1.80000000e+00    1.80000000e+00    1.80000000e+00    1.80000919e+00    1.80000919e+00    1.80000919e+00    1.80000919e+00
115      2.89335414e-09    1.80000000e+00    1.80000000e+00    1.80000000e+00    1.80001354e+00    1.80001354e+00    1.80001354e+00    1.80001354e+00
116      2.89936850e-09    1.80000000e+00    1.80000000e+00    1.80000000e+00    1.80002178e+00    1.80002178e+00    1.80002178e+00    1.80002178e+00
117      2.90538286e-09    1.80000000e+00    1.80000000e+00    1.80000000e+00    1.80001723e+00    1.80001723e+00    1.80001723e+00    1.80001723e+00
118      2.91139722e-09    1.80000000e+00    1.80000000e+00    1.80000000e+00    1.79998559e+00    1.79998559e+00    1.79998559e+00    1.79998559e+00
119      2.91741158e-09    1.80000000e+00    1.80000000e+00    1.80000000e+00    1.79995434e+00    1.79995434e+00    1.79995434e+00    1.79995434e+00
120      2.92342594e-09    1.80000000e+00    1.80000000e+00    1.80000000e+00    1.79993469e+00    1.79993469e+00    1.79993469e+00    1.79993469e+00
121      2.92944030e-09    1.80000000e+00    1.80000000e+00    1.80000000e+00    1.79992996e+00    1.79992997e+00    1.79992997e+00    1.79992997e+00
122      2.93545465e-09    1.80000000e+00    1.80000000e+00    1.80000000e+00    1.79993387e+00    1.79993387e+00    1.79993387e+00    1.79993387e+00
123      2.94146901e-09    1.80000000e+00    1.80000000e+00    1.80000000e+00    1.79994003e+00    1.79994004e+00    1.79994004e+00    1.79994004e+00
124      2.94748337e-09    1.80000000e+00    1.80000000e+00    1.80000000e+00    1.79994554e+00    1.79994556e+00    1.79994556e+00    1.79994556e+00
125      2.95349773e-09    1.80000000e+00    1.80000000e+00    1.80000000e+00    1.79995018e+00    1.79995020e+00    1.79995020e+00    1.79995020e+00
126      2.95951209e-09    1.80000000e+00    1.80000000e+00    1.80000000e+00    1.79995667e+00    1.79995669e+00    1.79995669e+00    1.79995669e+00
127      2.96552645e-09    1.80000000e+00    1.80000000e+00    1.80000000e+00    1.79997385e+00    1.79997386e+00    1.79997386e+00    1.79997386e+00
128      2.97755517e-09    1.80000000e+00    1.80000000e+00    1.80000000e+00    1.80003595e+00    1.80003584e+00    1.80003584e+00    1.80003584e+00
129      2.98729646e-09    1.80000000e+00    1.80000000e+00    1.80000000e+00    1.80006440e+00    1.80006423e+00    1.80006423e+00    1.80006423e+00
130      2.99703775e-09    1.80000000e+00    1.80000000e+00    1.80000000e+00    1.80005505e+00    1.80005488e+00    1.80005488e+00    1.80005488e+00
131      3.00677905e-09    1.80000000e+00    1.80000000e+00    1.80000000e+00    1.80004336e+00    1.80004319e+00    1.80004319e+00    1.80004319e+00
